Time [s],Value,Parity Error,Framing Error
3.527126560000000,0x01,,
3.527213120000000,0x01,,
3.527299680000000,0xFE,,
3.527386400000000,0x4C,,
3.527472960000000,0x6F,,
3.527559520000000,0x72,,
3.527646080000000,0x65,,
3.527732800000000,0x6D,,
3.527819360000000,0x20,,
3.527905920000000,0x69,,
3.527992480000000,0x70,,
3.528079200000000,0x73,,
3.528165920000000,0x75,,
3.528252640000000,0x6D,,
3.528339360000000,0x20,,
3.528425920000000,0x64,,
3.528512640000000,0x6F,,
3.528599200000000,0x6C,,
3.528685920000000,0x6F,,
3.528772640000000,0x72,,
3.528859360000000,0x20,,
3.528945920000000,0x73,,
3.529032480000000,0x69,,
3.529119040000000,0x74,,
3.529205600000000,0x20,,
3.529292160000000,0x61,,
3.529378720000000,0x6D,,
3.529465280000000,0x65,,
3.529551840000000,0x74,,
3.529638400000000,0x2C,,
3.529725120000000,0x20,,
3.529811680000000,0x63,,
3.529898400000000,0x6F,,
3.529985120000000,0x6E,,
3.530071680000000,0x73,,
3.530158400000000,0x65,,
3.530244960000000,0x63,,
3.530331680000000,0x74,,
3.530418240000000,0x65,,
3.530504800000000,0x74,,
3.530591520000000,0x75,,
3.530678240000000,0x72,,
3.530764800000000,0x20,,
3.530851520000000,0x61,,
3.530938400000000,0x64,,
3.531025120000000,0x69,,
3.531111840000000,0x70,,
3.531198560000000,0x69,,
3.531285280000000,0x73,,
3.531371840000000,0x63,,
3.531458560000000,0x69,,
3.531545280000000,0x6E,,
3.531632000000000,0x67,,
3.531718720000000,0x20,,
3.531805440000000,0x65,,
3.531892000000000,0x6C,,
3.531978560000000,0x69,,
3.532065280000000,0x74,,
3.532151840000000,0x2E,,
3.532238400000000,0x20,,
3.532325120000000,0x53,,
3.532411840000000,0x65,,
3.532498560000000,0x64,,
3.532585120000000,0x20,,
3.532671840000000,0x64,,
3.532758560000000,0x6F,,
3.532845280000000,0x20,,
3.532931840000000,0x65,,
3.533018560000000,0x69,,
3.533105280000000,0x75,,
3.533192000000000,0x73,,
3.533278560000000,0x6D,,
3.533365280000000,0x6F,,
3.533452000000000,0x64,,
3.533538720000000,0x20,,
3.533625280000000,0x74,,
3.533712000000000,0x65,,
3.533798720000000,0x6D,,
3.533885440000000,0x70,,
3.533972160000000,0x6F,,
3.534058720000000,0x72,,
3.534145440000000,0x20,,
3.534232160000000,0x0A,,
3.534318880000000,0x69,,
3.534405600000000,0x6E,,
3.534492320000000,0x63,,
3.534579040000000,0x69,,
3.534665600000000,0x64,,
3.534752320000000,0x69,,
3.534839040000000,0x64,,
3.534925760000000,0x75,,
3.535012320000000,0x6E,,
3.535099040000000,0x74,,
3.535185760000000,0x20,,
3.535272480000000,0x75,,
3.535359200000000,0x74,,
3.535445920000000,0x20,,
3.535532480000000,0x6C,,
3.535619200000000,0x61,,
3.535705920000000,0x62,,
3.535792640000000,0x6F,,
3.535879200000000,0x72,,
3.535965760000000,0x65,,
3.536052480000000,0x20,,
3.536139040000000,0x65,,
3.536225760000000,0x74,,
3.536312320000000,0x20,,
3.536398880000000,0x64,,
3.536485600000000,0x6F,,
3.536572320000000,0x6C,,
3.536659040000000,0x6F,,
3.536745600000000,0x72,,
3.536832480000000,0x65,,
3.536919040000000,0x20,,
3.537005600000000,0x6D,,
3.537092160000000,0x61,,
3.537178560000000,0x67,,
3.537264960000000,0x6E,,
3.537351520000000,0x61,,
3.537437920000000,0x20,,
3.537524480000000,0x61,,
3.537610880000000,0x6C,,
3.537697440000000,0x69,,
3.537784000000000,0x71,,
3.537870560000000,0x75,,
3.537957120000000,0x61,,
3.538043520000000,0x2E,,
3.538130080000000,0x20,,
3.538216480000000,0x55,,
3.538303040000000,0x74,,
3.538389440000000,0x20,,
3.538475840000000,0x7B,,
3.543110080000000,0x01,,
3.543196800000000,0x02,,
3.543283360000000,0xFD,,
3.543370080000000,0x65,,
3.543456960000000,0x6E,,
3.543543520000000,0x69,,
3.543630240000000,0x6D,,
3.543716960000000,0x20,,
3.543803520000000,0x61,,
3.543890240000000,0x64,,
3.543976800000000,0x20,,
3.544063520000000,0x6D,,
3.544150080000000,0x69,,
3.544236800000000,0x6E,,
3.544323360000000,0x69,,
3.544409920000000,0x6D,,
3.544496640000000,0x20,,
3.544583200000000,0x76,,
3.544669760000000,0x65,,
3.544756480000000,0x6E,,
3.544843200000000,0x69,,
3.544929760000000,0x61,,
3.545016640000000,0x6D,,
3.545103200000000,0x2C,,
3.545189920000000,0x20,,
3.545276640000000,0x71,,
3.545363360000000,0x75,,
3.545450080000000,0x69,,
3.545536800000000,0x73,,
3.545623360000000,0x20,,
3.545709920000000,0x0A,,
3.545796480000000,0x6E,,
3.545883040000000,0x6F,,
3.545969600000000,0x73,,
3.546056160000000,0x74,,
3.546142880000000,0x72,,
3.546229440000000,0x75,,
3.546316000000000,0x64,,
3.546402720000000,0x20,,
3.546489280000000,0x65,,
3.546575840000000,0x78,,
3.546662560000000,0x65,,
3.546749280000000,0x72,,
3.546835840000000,0x63,,
3.546922560000000,0x69,,
3.547009120000000,0x74,,
3.547095840000000,0x61,,
3.547182560000000,0x74,,
3.547269280000000,0x69,,
3.547355840000000,0x6F,,
3.547442560000000,0x6E,,
3.547529280000000,0x20,,
3.547615840000000,0x75,,
3.547702560000000,0x6C,,
3.547789280000000,0x6C,,
3.547875840000000,0x61,,
3.547962560000000,0x6D,,
3.548049120000000,0x63,,
3.548135840000000,0x6F,,
3.548222400000000,0x20,,
3.548309120000000,0x6C,,
3.548395840000000,0x61,,
3.548482400000000,0x62,,
3.548569120000000,0x6F,,
3.548655680000000,0x72,,
3.548742400000000,0x69,,
3.548829120000000,0x73,,
3.548915680000000,0x20,,
3.549002240000000,0x6E,,
3.549088800000000,0x69,,
3.549175360000000,0x73,,
3.549261920000000,0x69,,
3.549348320000000,0x20,,
3.549434880000000,0x75,,
3.549521440000000,0x74,,
3.549607840000000,0x20,,
3.549694400000000,0x61,,
3.549780960000000,0x6C,,
3.549867520000000,0x69,,
3.549953920000000,0x71,,
3.550040480000000,0x75,,
3.550126880000000,0x69,,
3.550213440000000,0x70,,
3.550299840000000,0x20,,
3.550386240000000,0x65,,
3.550472800000000,0x78,,
3.550559200000000,0x20,,
3.550645760000000,0x65,,
3.550732320000000,0x61,,
3.550818880000000,0x20,,
3.550905600000000,0x63,,
3.550992160000000,0x6F,,
3.551078720000000,0x6D,,
3.551165280000000,0x6D,,
3.551251840000000,0x6F,,
3.551338400000000,0x64,,
3.551424800000000,0x6F,,
3.551511360000000,0x20,,
3.551597760000000,0x63,,
3.551684160000000,0x6F,,
3.551770720000000,0x6E,,
3.551856960000000,0x73,,
3.551943360000000,0x65,,
3.552029760000000,0x71,,
3.552116160000000,0x75,,
3.552202560000000,0x61,,
3.552288960000000,0x74,,
3.552375360000000,0x2E,,
3.552461760000000,0x20,,
3.552548160000000,0x0A,,
3.552634400000000,0x44,,
3.552720960000000,0x75,,
3.552807520000000,0x69,,
3.552894080000000,0x73,,
3.552980800000000,0x20,,
3.553067360000000,0x61,,
3.553153760000000,0x75,,
3.553240160000000,0x74,,
3.553326560000000,0x65,,
3.553413120000000,0x20,,
3.553499520000000,0x69,,
3.553585920000000,0x72,,
3.553672480000000,0x75,,
3.553758880000000,0x72,,
3.553845280000000,0x65,,
3.553931680000000,0x20,,
3.554018240000000,0x64,,
3.554104800000000,0x6F,,
3.554191360000000,0x6C,,
3.554277920000000,0x6F,,
3.554364480000000,0x72,,
3.554450880000000,0x0F,,
3.559344160000000,0x01,,
3.559430880000000,0x03,,
3.559517440000000,0xFC,,
3.559604160000000,0x20,,
3.559690720000000,0x69,,
3.559777440000000,0x6E,,
3.559864160000000,0x20,,
3.559950720000000,0x72,,
3.560037280000000,0x65,,
3.560124000000000,0x70,,
3.560210720000000,0x72,,
3.560297280000000,0x65,,
3.560384000000000,0x68,,
3.560470560000000,0x65,,
3.560557280000000,0x6E,,
3.560644000000000,0x64,,
3.560730560000000,0x65,,
3.560817280000000,0x72,,
3.560903840000000,0x69,,
3.560990560000000,0x74,,
3.561077120000000,0x20,,
3.561163680000000,0x69,,
3.561250400000000,0x6E,,
3.561336960000000,0x20,,
3.561423520000000,0x76,,
3.561510240000000,0x6F,,
3.561596800000000,0x6C,,
3.561683360000000,0x75,,
3.561770080000000,0x70,,
3.561856640000000,0x74,,
3.561943200000000,0x61,,
3.562029760000000,0x74,,
3.562116320000000,0x65,,
3.562202880000000,0x20,,
3.562289600000000,0x76,,
3.562376320000000,0x65,,
3.562463040000000,0x6C,,
3.562549600000000,0x69,,
3.562636160000000,0x74,,
3.562722880000000,0x20,,
3.562809440000000,0x65,,
3.562896000000000,0x73,,
3.562982720000000,0x73,,
3.563069440000000,0x65,,
3.563156160000000,0x20,,
3.563242880000000,0x63,,
3.563329600000000,0x69,,
3.563416160000000,0x6C,,
3.563502880000000,0x6C,,
3.563589440000000,0x75,,
3.563676160000000,0x6D,,
3.563762880000000,0x20,,
3.563849280000000,0x64,,
3.563935680000000,0x6F,,
3.564022240000000,0x6C,,
3.564108800000000,0x6F,,
3.564195360000000,0x72,,
3.564281920000000,0x65,,
3.564368480000000,0x20,,
3.564455040000000,0x65,,
3.564541600000000,0x75,,
3.564628320000000,0x20,,
3.564714880000000,0x0A,,
3.564801440000000,0x66,,
3.564888160000000,0x75,,
3.564974880000000,0x67,,
3.565061600000000,0x69,,
3.565148320000000,0x61,,
3.565235200000000,0x74,,
3.565322080000000,0x20,,
3.565408960000000,0x6E,,
3.565495840000000,0x75,,
3.565582720000000,0x6C,,
3.565669440000000,0x6C,,
3.565756160000000,0x61,,
3.565842880000000,0x20,,
3.565929440000000,0x70,,
3.566016160000000,0x61,,
3.566102720000000,0x72,,
3.566189440000000,0x69,,
3.566276000000000,0x61,,
3.566362560000000,0x74,,
3.566449280000000,0x75,,
3.566535840000000,0x72,,
3.566622400000000,0x2E,,
3.566709120000000,0x20,,
3.566795680000000,0x45,,
3.566882240000000,0x78,,
3.566968800000000,0x63,,
3.567055360000000,0x65,,
3.567141920000000,0x70,,
3.567228320000000,0x74,,
3.567314880000000,0x65,,
3.567401280000000,0x75,,
3.567487680000000,0x72,,
3.567574240000000,0x20,,
3.567660640000000,0x73,,
3.567747040000000,0x69,,
3.567833600000000,0x6E,,
3.567920160000000,0x74,,
3.568006560000000,0x20,,
3.568093120000000,0x6F,,
3.568179680000000,0x63,,
3.568266240000000,0x63,,
3.568352800000000,0x61,,
3.568439200000000,0x65,,
3.568525760000000,0x63,,
3.568612320000000,0x61,,
3.568698880000000,0x74,,
3.568785280000000,0x20,,
3.568871840000000,0x63,,
3.568958400000000,0x75,,
3.569044960000000,0x70,,
3.569131360000000,0x69,,
3.569217920000000,0x64,,
3.569304480000000,0x61,,
3.569391040000000,0x74,,
3.569477760000000,0x61,,
3.569564320000000,0x74,,
3.569651040000000,0x20,,
3.569737600000000,0x6E,,
3.569824320000000,0x6F,,
3.569910880000000,0x6E,,
3.569997440000000,0x20,,
3.570084160000000,0x70,,
3.570170720000000,0x72,,
3.570257280000000,0x6F,,
3.570343840000000,0x69,,
3.570430400000000,0x64,,
3.570516960000000,0x65,,
3.570603520000000,0x6E,,
3.570689920000000,0xD9,,
3.575278880000000,0x01,,
3.575365600000000,0x04,,
3.575452320000000,0xFB,,
3.575539040000000,0x74,,
3.575625600000000,0x2C,,
3.575712320000000,0x20,,
3.575798880000000,0x73,,
3.575885600000000,0x75,,
3.575972160000000,0x6E,,
3.576058880000000,0x74,,
3.576145440000000,0x20,,
3.576232160000000,0x69,,
3.576318720000000,0x6E,,
3.576405280000000,0x20,,
3.576492000000000,0x0A,,
3.576578560000000,0x63,,
3.576665120000000,0x75,,
3.576751840000000,0x6C,,
3.576838400000000,0x70,,
3.576925120000000,0x61,,
3.577011680000000,0x20,,
3.577098240000000,0x71,,
3.577184960000000,0x75,,
3.577271520000000,0x69,,
3.577358080000000,0x20,,
3.577444640000000,0x6F,,
3.577531200000000,0x66,,
3.577617760000000,0x66,,
3.577704320000000,0x69,,
3.577790880000000,0x63,,
3.577877440000000,0x69,,
3.577964000000000,0x61,,
3.578050720000000,0x20,,
3.578137280000000,0x64,,
3.578223840000000,0x65,,
3.578310400000000,0x73,,
3.578396960000000,0x65,,
3.578483520000000,0x72,,
3.578570080000000,0x75,,
3.578656800000000,0x6E,,
3.578743360000000,0x74,,
3.578829920000000,0x20,,
3.578916640000000,0x6D,,
3.579003200000000,0x6F,,
3.579089920000000,0x6C,,
3.579176640000000,0x6C,,
3.579263200000000,0x69,,
3.579349920000000,0x74,,
3.579436480000000,0x20,,
3.579523040000000,0x61,,
3.579609600000000,0x6E,,
3.579696320000000,0x69,,
3.579782880000000,0x6D,,
3.579869600000000,0x20,,
3.579956320000000,0x69,,
3.580043200000000,0x64,,
3.580129920000000,0x20,,
3.580216640000000,0x65,,
3.580303360000000,0x73,,
3.580389920000000,0x74,,
3.580476480000000,0x20,,
3.580563200000000,0x6C,,
3.580649760000000,0x61,,
3.580736480000000,0x62,,
3.580823040000000,0x6F,,
3.580909760000000,0x72,,
3.580996320000000,0x75,,
3.581082880000000,0x6D,,
3.581169600000000,0x2E,,
3.581256160000000,0x20,,
3.581342880000000,0x43,,
3.581429440000000,0x75,,
3.581516160000000,0x72,,
3.581602720000000,0x61,,
3.581689440000000,0x62,,
3.581776160000000,0x69,,
3.581862720000000,0x74,,
3.581949440000000,0x75,,
3.582036160000000,0x72,,
3.582122880000000,0x20,,
3.582209440000000,0x70,,
3.582296000000000,0x72,,
3.582382560000000,0x65,,
3.582469280000000,0x74,,
3.582555840000000,0x69,,
3.582642560000000,0x75,,
3.582729120000000,0x6D,,
3.582815840000000,0x20,,
3.582902560000000,0x0A,,
3.582989120000000,0x74,,
3.583075840000000,0x69,,
3.583162400000000,0x6E,,
3.583249120000000,0x63,,
3.583336000000000,0x69,,
3.583422720000000,0x64,,
3.583509440000000,0x75,,
3.583596320000000,0x6E,,
3.583683040000000,0x74,,
3.583769760000000,0x20,,
3.583856480000000,0x6C,,
3.583943200000000,0x61,,
3.584029920000000,0x63,,
3.584116640000000,0x75,,
3.584203360000000,0x73,,
3.584290240000000,0x2E,,
3.584377120000000,0x20,,
3.584464000000000,0x4E,,
3.584550880000000,0x75,,
3.584637760000000,0x6C,,
3.584724640000000,0x6C,,
3.584811360000000,0x61,,
3.584898080000000,0x20,,
3.584984960000000,0x67,,
3.585071680000000,0x72,,
3.585158560000000,0x61,,
3.585245120000000,0x76,,
3.585331840000000,0x69,,
3.585418400000000,0x64,,
3.585504960000000,0x61,,
3.585591520000000,0x20,,
3.585678240000000,0x6F,,
3.585764800000000,0x72,,
3.585851520000000,0x63,,
3.585938240000000,0x69,,
3.586024960000000,0x20,,
3.586111680000000,0x61,,
3.586198560000000,0x20,,
3.586285280000000,0x6F,,
3.586372160000000,0x64,,
3.586458880000000,0x69,,
3.586545760000000,0x6F,,
3.586632640000000,0x45,,
3.591335680000000,0x01,,
3.591422400000000,0x05,,
3.591508960000000,0xFA,,
3.591595680000000,0x2E,,
3.591682400000000,0x20,,
3.591769120000000,0x4E,,
3.591855840000000,0x75,,
3.591942400000000,0x6C,,
3.592029120000000,0x6C,,
3.592115840000000,0x61,,
3.592202560000000,0x6D,,
3.592289280000000,0x20,,
3.592376000000000,0x76,,
3.592462560000000,0x61,,
3.592549120000000,0x72,,
3.592635680000000,0x69,,
3.592722400000000,0x75,,
3.592809120000000,0x73,,
3.592896000000000,0x2C,,
3.592982560000000,0x20,,
3.593069280000000,0x74,,
3.593156000000000,0x75,,
3.593242720000000,0x72,,
3.593329440000000,0x70,,
3.593416160000000,0x69,,
3.593502880000000,0x73,,
3.593589440000000,0x20,,
3.593676160000000,0x65,,
3.593762880000000,0x74,,
3.593849440000000,0x20,,
3.593936160000000,0x63,,
3.594022880000000,0x6F,,
3.594109440000000,0x6D,,
3.594196160000000,0x6D,,
3.594282720000000,0x6F,,
3.594369440000000,0x64,,
3.594456160000000,0x6F,,
3.594542720000000,0x20,,
3.594629440000000,0x0A,,
3.594716000000000,0x70,,
3.594802720000000,0x68,,
3.594889440000000,0x61,,
3.594976000000000,0x72,,
3.595062560000000,0x65,,
3.595149280000000,0x74,,
3.595235840000000,0x72,,
3.595322400000000,0x61,,
3.595408960000000,0x2E,,
3.595495520000000,0x0A,,
3.595582080000000,0x1A,,
3.595668640000000,0x1A,,
3.595755360000000,0x1A,,
3.595841920000000,0x1A,,
3.595928480000000,0x1A,,
3.596014880000000,0x1A,,
3.596101440000000,0x1A,,
3.596188160000000,0x1A,,
3.596274720000000,0x1A,,
3.596361280000000,0x1A,,
3.596448000000000,0x1A,,
3.596534560000000,0x1A,,
3.596621120000000,0x1A,,
3.596707840000000,0x1A,,
3.596794400000000,0x1A,,
3.596881120000000,0x1A,,
3.596967680000000,0x1A,,
3.597054240000000,0x1A,,
3.597140960000000,0x1A,,
3.597227520000000,0x1A,,
3.597314240000000,0x1A,,
3.597400800000000,0x1A,,
3.597487520000000,0x1A,,
3.597574240000000,0x1A,,
3.597660960000000,0x1A,,
3.597747840000000,0x1A,,
3.597834720000000,0x1A,,
3.597921440000000,0x1A,,
3.598008320000000,0x1A,,
3.598095200000000,0x1A,,
3.598182240000000,0x1A,,
3.598269120000000,0x1A,,
3.598356000000000,0x1A,,
3.598442880000000,0x1A,,
3.598529760000000,0x1A,,
3.598616640000000,0x1A,,
3.598703520000000,0x1A,,
3.598790400000000,0x1A,,
3.598877280000000,0x1A,,
3.598964320000000,0x1A,,
3.599051200000000,0x1A,,
3.599138080000000,0x1A,,
3.599224800000000,0x1A,,
3.599311520000000,0x1A,,
3.599398080000000,0x1A,,
3.599484800000000,0x1A,,
3.599571360000000,0x1A,,
3.599657920000000,0x1A,,
3.599744480000000,0x1A,,
3.599831040000000,0x1A,,
3.599917760000000,0x1A,,
3.600004320000000,0x1A,,
3.600091040000000,0x1A,,
3.600177600000000,0x1A,,
3.600264320000000,0x1A,,
3.600350880000000,0x1A,,
3.600437440000000,0x1A,,
3.600524160000000,0x1A,,
3.600610720000000,0x1A,,
3.600697120000000,0x1A,,
3.600783680000000,0x1A,,
3.600870240000000,0x1A,,
3.600956800000000,0x1A,,
3.601043360000000,0x1A,,
3.601129920000000,0x1A,,
3.601216480000000,0x1A,,
3.601303040000000,0x1A,,
3.601389600000000,0x1A,,
3.601476160000000,0x1A,,
3.601562560000000,0x1A,,
3.601648960000000,0x1A,,
3.601735520000000,0x1A,,
3.601821920000000,0x1A,,
3.601908160000000,0x1A,,
3.601994400000000,0x1A,,
3.602080640000000,0x1A,,
3.602167040000000,0x1A,,
3.602253280000000,0x1A,,
3.602339520000000,0x1A,,
3.602425920000000,0x1A,,
3.602512160000000,0x1A,,
3.602598720000000,0x1A,,
3.602685120000000,0x78,,
3.607286400000000,0x04,,
