Time [s],Value,Parity Error,Framing Error
0.833014560000000,0x01,,
0.833101440000000,0x01,,
0.833188160000000,0xFE,,
0.833275040000000,0x58,,
0.833361760000000,0x4D,,
0.833448640000000,0x6F,,
0.833535200000000,0x64,,
0.833621920000000,0x65,,
0.833708640000000,0x6D,,
0.833795360000000,0x20,,
0.833881920000000,0x50,,
0.833968640000000,0x72,,
0.834055360000000,0x6F,,
0.834141920000000,0x74,,
0.834228640000000,0x6F,,
0.834315200000000,0x63,,
0.834401920000000,0x6F,,
0.834488480000000,0x6C,,
0.834575200000000,0x20,,
0.834661920000000,0x77,,
0.834748480000000,0x69,,
0.834835200000000,0x74,,
0.834921760000000,0x68,,
0.835008480000000,0x20,,
0.835095040000000,0x43,,
0.835181760000000,0x52,,
0.835268320000000,0x43,,
0.835354880000000,0x0A,,
0.835441600000000,0x49,,
0.835528320000000,0x6E,,
0.835614880000000,0x74,,
0.835701600000000,0x72,,
0.835788320000000,0x6F,,
0.835874880000000,0x64,,
0.835961600000000,0x75,,
0.836048320000000,0x63,,
0.836134880000000,0x74,,
0.836221600000000,0x69,,
0.836308160000000,0x6F,,
0.836394720000000,0x6E,,
0.836481280000000,0x0A,,
0.836567840000000,0x0A,,
0.836654560000000,0x54,,
0.836741120000000,0x68,,
0.836827680000000,0x65,,
0.836914240000000,0x20,,
0.837000800000000,0x58,,
0.837087360000000,0x6D,,
0.837174080000000,0x6F,,
0.837260480000000,0x64,,
0.837347040000000,0x65,,
0.837433600000000,0x6D,,
0.837520320000000,0x20,,
0.837607040000000,0x70,,
0.837693600000000,0x72,,
0.837780160000000,0x6F,,
0.837866880000000,0x74,,
0.837953440000000,0x6F,,
0.838040160000000,0x63,,
0.838126720000000,0x6F,,
0.838213440000000,0x6C,,
0.838300000000000,0x20,,
0.838386720000000,0x77,,
0.838473280000000,0x61,,
0.838560000000000,0x73,,
0.838646880000000,0x20,,
0.838733600000000,0x63,,
0.838820320000000,0x72,,
0.838907040000000,0x65,,
0.838993760000000,0x61,,
0.839080320000000,0x74,,
0.839167040000000,0x65,,
0.839253600000000,0x64,,
0.839340000000000,0x20,,
0.839426560000000,0x79,,
0.839513120000000,0x65,,
0.839599840000000,0x61,,
0.839686400000000,0x72,,
0.839772960000000,0x73,,
0.839859520000000,0x20,,
0.839946080000000,0x61,,
0.840032640000000,0x67,,
0.840119200000000,0x6F,,
0.840205600000000,0x20,,
0.840292000000000,0x61,,
0.840378400000000,0x73,,
0.840464960000000,0x20,,
0.840551360000000,0x61,,
0.840637760000000,0x20,,
0.840724160000000,0x73,,
0.840810560000000,0x69,,
0.840897120000000,0x6D,,
0.840983680000000,0x70,,
0.841070240000000,0x6C,,
0.841156800000000,0x65,,
0.841243520000000,0x20,,
0.841330080000000,0x6D,,
0.841416640000000,0x65,,
0.841503200000000,0x61,,
0.841589760000000,0x6E,,
0.841676480000000,0x73,,
0.841763040000000,0x20,,
0.841849600000000,0x6F,,
0.841936160000000,0x66,,
0.842022880000000,0x20,,
0.842109440000000,0x68,,
0.842196000000000,0x61,,
0.842282560000000,0x76,,
0.842369280000000,0x69,,
0.842455840000000,0x6E,,
0.842542400000000,0x67,,
0.842628960000000,0x20,,
0.842715680000000,0x74,,
0.842802240000000,0x77,,
0.842888800000000,0x6F,,
0.842975360000000,0x20,,
0.843061920000000,0x63,,
0.843148640000000,0x6F,,
0.843235200000000,0x6D,,
0.843321760000000,0x70,,
0.843408320000000,0x75,,
0.843494880000000,0x74,,
0.843581440000000,0x65,,
0.843668000000000,0x72,,
0.843754560000000,0x73,,
0.843841280000000,0x20,,
0.843927840000000,0x74,,
0.844014560000000,0x61,,
0.844101280000000,0x6C,,
0.844188000000000,0x6B,,
0.844274560000000,0x20,,
0.844361280000000,0x38,,
0.849003200000000,0x01,,
0.849089760000000,0x02,,
0.849176480000000,0xFD,,
0.849263040000000,0x74,,
0.849349760000000,0x6F,,
0.849436160000000,0x20,,
0.849522720000000,0x65,,
0.849609280000000,0x61,,
0.849695840000000,0x63,,
0.849782400000000,0x68,,
0.849868960000000,0x20,,
0.849955680000000,0x6F,,
0.850042400000000,0x74,,
0.850128960000000,0x68,,
0.850215680000000,0x65,,
0.850302240000000,0x72,,
0.850388960000000,0x2E,,
0.850475680000000,0x20,,
0.850562240000000,0x57,,
0.850648960000000,0x69,,
0.850735680000000,0x74,,
0.850822240000000,0x68,,
0.850908960000000,0x20,,
0.850995680000000,0x69,,
0.851082240000000,0x74,,
0.851168960000000,0x73,,
0.851255520000000,0x20,,
0.851342240000000,0x68,,
0.851428800000000,0x61,,
0.851515520000000,0x6C,,
0.851602240000000,0x66,,
0.851688800000000,0x2D,,
0.851775520000000,0x64,,
0.851862080000000,0x75,,
0.851948640000000,0x70,,
0.852035200000000,0x6C,,
0.852121760000000,0x65,,
0.852208480000000,0x78,,
0.852295200000000,0x20,,
0.852381920000000,0x6D,,
0.852468480000000,0x6F,,
0.852555040000000,0x64,,
0.852641600000000,0x65,,
0.852728160000000,0x20,,
0.852814560000000,0x6F,,
0.852901120000000,0x66,,
0.852987680000000,0x20,,
0.853074240000000,0x6F,,
0.853160800000000,0x70,,
0.853247520000000,0x65,,
0.853334240000000,0x72,,
0.853420960000000,0x61,,
0.853507680000000,0x74,,
0.853594240000000,0x69,,
0.853680960000000,0x6F,,
0.853767680000000,0x6E,,
0.853854400000000,0x2C,,
0.853940960000000,0x20,,
0.854027680000000,0x31,,
0.854114240000000,0x32,,
0.854200960000000,0x38,,
0.854287520000000,0x2D,,
0.854374080000000,0x20,,
0.854460640000000,0x62,,
0.854547200000000,0x79,,
0.854633920000000,0x74,,
0.854720480000000,0x65,,
0.854807200000000,0x20,,
0.854893920000000,0x70,,
0.854980480000000,0x61,,
0.855067200000000,0x63,,
0.855153760000000,0x6B,,
0.855240480000000,0x65,,
0.855327040000000,0x74,,
0.855413760000000,0x73,,
0.855500480000000,0x2C,,
0.855587200000000,0x20,,
0.855673920000000,0x41,,
0.855760640000000,0x43,,
0.855847200000000,0x4B,,
0.855933920000000,0x2F,,
0.856020640000000,0x4E,,
0.856107200000000,0x41,,
0.856193760000000,0x43,,
0.856280320000000,0x4B,,
0.856367040000000,0x20,,
0.856453600000000,0x72,,
0.856540160000000,0x65,,
0.856626560000000,0x73,,
0.856712960000000,0x70,,
0.856799520000000,0x6F,,
0.856886080000000,0x6E,,
0.856972800000000,0x73,,
0.857059360000000,0x65,,
0.857145920000000,0x73,,
0.857232480000000,0x20,,
0.857319200000000,0x61,,
0.857405760000000,0x6E,,
0.857492480000000,0x64,,
0.857579040000000,0x20,,
0.857665760000000,0x43,,
0.857752320000000,0x52,,
0.857839040000000,0x43,,
0.857925760000000,0x20,,
0.858012320000000,0x64,,
0.858099040000000,0x61,,
0.858185600000000,0x74,,
0.858272320000000,0x61,,
0.858358880000000,0x20,,
0.858445600000000,0x63,,
0.858532320000000,0x68,,
0.858618880000000,0x65,,
0.858705440000000,0x63,,
0.858792000000000,0x6B,,
0.858878720000000,0x69,,
0.858965280000000,0x6E,,
0.859052000000000,0x67,,
0.859138560000000,0x2C,,
0.859225280000000,0x20,,
0.859312000000000,0x74,,
0.859398720000000,0x68,,
0.859485600000000,0x65,,
0.859572320000000,0x20,,
0.859659040000000,0x58,,
0.859745760000000,0x6D,,
0.859832480000000,0x6F,,
0.859919200000000,0x64,,
0.860005760000000,0x65,,
0.860092320000000,0x6D,,
0.860179040000000,0x20,,
0.860265600000000,0x70,,
0.860352320000000,0xB9,,
0.865056480000000,0x01,,
0.865143040000000,0x03,,
0.865229760000000,0xFC,,
0.865316480000000,0x72,,
0.865403040000000,0x6F,,
0.865489760000000,0x74,,
0.865576480000000,0x6F,,
0.865663040000000,0x63,,
0.865749600000000,0x6F,,
0.865836160000000,0x6C,,
0.865922720000000,0x20,,
0.866009280000000,0x68,,
0.866096000000000,0x61,,
0.866182560000000,0x73,,
0.866269280000000,0x20,,
0.866355840000000,0x66,,
0.866442560000000,0x6F,,
0.866529280000000,0x75,,
0.866616000000000,0x6E,,
0.866702560000000,0x64,,
0.866789280000000,0x20,,
0.866875840000000,0x69,,
0.866962560000000,0x74,,
0.867049280000000,0x73,,
0.867135840000000,0x20,,
0.867222400000000,0x77,,
0.867308960000000,0x61,,
0.867395680000000,0x79,,
0.867482240000000,0x20,,
0.867568800000000,0x69,,
0.867655520000000,0x6E,,
0.867742080000000,0x74,,
0.867828800000000,0x6F,,
0.867915360000000,0x20,,
0.868002080000000,0x6D,,
0.868088640000000,0x61,,
0.868175360000000,0x6E,,
0.868262080000000,0x79,,
0.868348800000000,0x20,,
0.868435520000000,0x61,,
0.868522240000000,0x70,,
0.868608800000000,0x70,,
0.868695360000000,0x6C,,
0.868781920000000,0x69,,
0.868868640000000,0x63,,
0.868955200000000,0x61,,
0.869041760000000,0x74,,
0.869128320000000,0x69,,
0.869214880000000,0x6F,,
0.869301600000000,0x6E,,
0.869388160000000,0x73,,
0.869474880000000,0x2E,,
0.869561600000000,0x20,,
0.869648160000000,0x49,,
0.869734880000000,0x6E,,
0.869821600000000,0x20,,
0.869908320000000,0x66,,
0.869995040000000,0x61,,
0.870081760000000,0x63,,
0.870168480000000,0x74,,
0.870255040000000,0x20,,
0.870341760000000,0x6D,,
0.870428480000000,0x6F,,
0.870515040000000,0x73,,
0.870601760000000,0x74,,
0.870688480000000,0x20,,
0.870775040000000,0x63,,
0.870861760000000,0x6F,,
0.870948480000000,0x6D,,
0.871035040000000,0x6D,,
0.871121760000000,0x75,,
0.871208320000000,0x6E,,
0.871295040000000,0x69,,
0.871381760000000,0x63,,
0.871468320000000,0x61,,
0.871555040000000,0x74,,
0.871641760000000,0x69,,
0.871728480000000,0x6F,,
0.871815040000000,0x6E,,
0.871901600000000,0x20,,
0.871988320000000,0x70,,
0.872074880000000,0x61,,
0.872161600000000,0x63,,
0.872248160000000,0x6B,,
0.872334880000000,0x61,,
0.872421440000000,0x67,,
0.872508000000000,0x65,,
0.872594560000000,0x73,,
0.872681280000000,0x20,,
0.872768000000000,0x66,,
0.872854720000000,0x6F,,
0.872941600000000,0x75,,
0.873028320000000,0x6E,,
0.873115200000000,0x64,,
0.873202080000000,0x20,,
0.873288800000000,0x6F,,
0.873375680000000,0x6E,,
0.873462560000000,0x20,,
0.873549280000000,0x74,,
0.873636160000000,0x68,,
0.873723040000000,0x65,,
0.873809760000000,0x20,,
0.873896640000000,0x50,,
0.873983360000000,0x43,,
0.874070240000000,0x20,,
0.874157120000000,0x74,,
0.874243840000000,0x6F,,
0.874330560000000,0x64,,
0.874417440000000,0x61,,
0.874504160000000,0x79,,
0.874590880000000,0x20,,
0.874677440000000,0x68,,
0.874764160000000,0x61,,
0.874850720000000,0x76,,
0.874937440000000,0x65,,
0.875024000000000,0x20,,
0.875110560000000,0x61,,
0.875197120000000,0x20,,
0.875283680000000,0x58,,
0.875370400000000,0x6D,,
0.875456800000000,0x6F,,
0.875543200000000,0x64,,
0.875629760000000,0x65,,
0.875716160000000,0x6D,,
0.875802720000000,0x20,,
0.875889120000000,0x70,,
0.875975680000000,0x72,,
0.876062400000000,0x6F,,
0.876148960000000,0x74,,
0.876235680000000,0x6F,,
0.876322240000000,0x63,,
0.876408960000000,0x00,,
0.881035680000000,0x01,,
0.881122240000000,0x04,,
0.881208800000000,0xFB,,
0.881295360000000,0x6F,,
0.881381920000000,0x6C,,
0.881468640000000,0x20,,
0.881555200000000,0x61,,
0.881641760000000,0x76,,
0.881728320000000,0x61,,
0.881814880000000,0x69,,
0.881901440000000,0x6C,,
0.881988000000000,0x61,,
0.882074720000000,0x62,,
0.882161280000000,0x6C,,
0.882248000000000,0x65,,
0.882334720000000,0x20,,
0.882421280000000,0x74,,
0.882507840000000,0x6F,,
0.882594560000000,0x20,,
0.882681120000000,0x74,,
0.882767840000000,0x68,,
0.882854400000000,0x65,,
0.882940960000000,0x20,,
0.883027680000000,0x75,,
0.883114400000000,0x73,,
0.883201120000000,0x65,,
0.883287680000000,0x72,,
0.883374400000000,0x2E,,
0.883461120000000,0x0A,,
0.883547680000000,0x54,,
0.883634400000000,0x68,,
0.883721120000000,0x65,,
0.883807680000000,0x6F,,
0.883894400000000,0x72,,
0.883980960000000,0x79,,
0.884067680000000,0x20,,
0.884154400000000,0x6F,,
0.884241120000000,0x66,,
0.884327840000000,0x20,,
0.884414400000000,0x4F,,
0.884501280000000,0x70,,
0.884587840000000,0x65,,
0.884674400000000,0x72,,
0.884760800000000,0x61,,
0.884847360000000,0x74,,
0.884933920000000,0x69,,
0.885020480000000,0x6F,,
0.885107040000000,0x6E,,
0.885193600000000,0x0A,,
0.885280160000000,0x0A,,
0.885366880000000,0x58,,
0.885453600000000,0x6D,,
0.885540160000000,0x6F,,
0.885626880000000,0x64,,
0.885713440000000,0x65,,
0.885800160000000,0x6D,,
0.885886880000000,0x20,,
0.885973440000000,0x69,,
0.886060160000000,0x73,,
0.886146880000000,0x20,,
0.886233440000000,0x61,,
0.886320160000000,0x20,,
0.886407040000000,0x68,,
0.886493760000000,0x61,,
0.886580480000000,0x6C,,
0.886667200000000,0x66,,
0.886753920000000,0x2D,,
0.886840800000000,0x64,,
0.886927520000000,0x75,,
0.887014240000000,0x70,,
0.887100960000000,0x6C,,
0.887187680000000,0x65,,
0.887274400000000,0x78,,
0.887361120000000,0x20,,
0.887447680000000,0x63,,
0.887534400000000,0x6F,,
0.887620960000000,0x6D,,
0.887707520000000,0x6D,,
0.887794240000000,0x75,,
0.887880800000000,0x6E,,
0.887967360000000,0x69,,
0.888053920000000,0x63,,
0.888140640000000,0x61,,
0.888227200000000,0x74,,
0.888313760000000,0x69,,
0.888400480000000,0x6F,,
0.888487040000000,0x6E,,
0.888573760000000,0x20,,
0.888660320000000,0x70,,
0.888746880000000,0x72,,
0.888833280000000,0x6F,,
0.888919680000000,0x74,,
0.889006240000000,0x6F,,
0.889092800000000,0x63,,
0.889179200000000,0x6F,,
0.889265760000000,0x6C,,
0.889352320000000,0x2E,,
0.889438720000000,0x20,,
0.889525280000000,0x54,,
0.889611840000000,0x68,,
0.889698240000000,0x65,,
0.889784800000000,0x20,,
0.889871360000000,0x72,,
0.889957920000000,0x65,,
0.890044480000000,0x63,,
0.890131040000000,0x65,,
0.890217600000000,0x69,,
0.890304320000000,0x76,,
0.890390880000000,0x65,,
0.890477600000000,0x72,,
0.890564320000000,0x2C,,
0.890650880000000,0x20,,
0.890737600000000,0x61,,
0.890824320000000,0x66,,
0.890910880000000,0x74,,
0.890997600000000,0x65,,
0.891084160000000,0x72,,
0.891170880000000,0x20,,
0.891257600000000,0x72,,
0.891344320000000,0x65,,
0.891430880000000,0x63,,
0.891517600000000,0x65,,
0.891604160000000,0x69,,
0.891690720000000,0x76,,
0.891777440000000,0x69,,
0.891864000000000,0x6E,,
0.891950400000000,0x67,,
0.892036960000000,0x20,,
0.892123360000000,0x61,,
0.892209920000000,0x20,,
0.892296480000000,0x70,,
0.892383040000000,0x24,,
0.896963840000000,0x01,,
0.897050400000000,0x05,,
0.897136960000000,0xFA,,
0.897223680000000,0x61,,
0.897310240000000,0x63,,
0.897396960000000,0x6B,,
0.897483680000000,0x65,,
0.897570400000000,0x74,,
0.897656960000000,0x2C,,
0.897743680000000,0x20,,
0.897830240000000,0x77,,
0.897916960000000,0x69,,
0.898003520000000,0x6C,,
0.898090080000000,0x6C,,
0.898176640000000,0x20,,
0.898263360000000,0x65,,
0.898349920000000,0x69,,
0.898436640000000,0x74,,
0.898523200000000,0x68,,
0.898609920000000,0x65,,
0.898696640000000,0x72,,
0.898783200000000,0x20,,
0.898869920000000,0x61,,
0.898956480000000,0x63,,
0.899043040000000,0x6B,,
0.899129600000000,0x6E,,
0.899216160000000,0x6F,,
0.899302880000000,0x77,,
0.899389440000000,0x6C,,
0.899476000000000,0x65,,
0.899562560000000,0x64,,
0.899649120000000,0x67,,
0.899735840000000,0x65,,
0.899822400000000,0x20,,
0.899908960000000,0x28,,
0.899995680000000,0x41,,
0.900082240000000,0x43,,
0.900168960000000,0x4B,,
0.900255520000000,0x29,,
0.900342240000000,0x20,,
0.900428800000000,0x6F,,
0.900515360000000,0x72,,
0.900602080000000,0x20,,
0.900688640000000,0x6E,,
0.900775200000000,0x6F,,
0.900861760000000,0x74,,
0.900948320000000,0x20,,
0.901034880000000,0x61,,
0.901121600000000,0x63,,
0.901208320000000,0x6B,,
0.901294880000000,0x6E,,
0.901381600000000,0x6F,,
0.901468320000000,0x77,,
0.901555040000000,0x6C,,
0.901641600000000,0x65,,
0.901728320000000,0x64,,
0.901815040000000,0x67,,
0.901901600000000,0x65,,
0.901988320000000,0x20,,
0.902074880000000,0x28,,
0.902161600000000,0x4E,,
0.902248320000000,0x41,,
0.902335040000000,0x4B,,
0.902421600000000,0x29,,
0.902508320000000,0x20,,
0.902594880000000,0x74,,
0.902681600000000,0x68,,
0.902768160000000,0x65,,
0.902854720000000,0x20,,
0.902941120000000,0x70,,
0.903027520000000,0x61,,
0.903114080000000,0x63,,
0.903200480000000,0x6B,,
0.903287040000000,0x65,,
0.903373440000000,0x74,,
0.903459840000000,0x2E,,
0.903546240000000,0x20,,
0.903632800000000,0x54,,
0.903719200000000,0x68,,
0.903805760000000,0x65,,
0.903892320000000,0x20,,
0.903978720000000,0x43,,
0.904065280000000,0x52,,
0.904151840000000,0x43,,
0.904238400000000,0x20,,
0.904325120000000,0x65,,
0.904411520000000,0x78,,
0.904498080000000,0x74,,
0.904584480000000,0x65,,
0.904671040000000,0x6E,,
0.904757600000000,0x73,,
0.904844160000000,0x69,,
0.904930560000000,0x6F,,
0.905016960000000,0x6E,,
0.905103360000000,0x20,,
0.905189760000000,0x74,,
0.905276320000000,0x6F,,
0.905362880000000,0x20,,
0.905449440000000,0x74,,
0.905536000000000,0x68,,
0.905622560000000,0x65,,
0.905709280000000,0x20,,
0.905795840000000,0x6F,,
0.905882560000000,0x72,,
0.905969120000000,0x69,,
0.906055840000000,0x67,,
0.906142400000000,0x69,,
0.906229120000000,0x6E,,
0.906315680000000,0x61,,
0.906402240000000,0x6C,,
0.906488800000000,0x20,,
0.906575520000000,0x70,,
0.906662080000000,0x72,,
0.906748640000000,0x6F,,
0.906835360000000,0x74,,
0.906921920000000,0x6F,,
0.907008640000000,0x63,,
0.907095200000000,0x6F,,
0.907181760000000,0x6C,,
0.907268320000000,0x20,,
0.907354880000000,0x75,,
0.907441600000000,0x73,,
0.907528160000000,0x65,,
0.907614720000000,0x73,,
0.907701280000000,0x20,,
0.907787840000000,0x61,,
0.907874560000000,0x20,,
0.907960960000000,0x6D,,
0.908047520000000,0x6F,,
0.908133920000000,0x72,,
0.908220480000000,0x65,,
0.908307040000000,0xEE,,
0.912954720000000,0x01,,
0.913041280000000,0x06,,
0.913127840000000,0xF9,,
0.913214560000000,0x20,,
0.913301120000000,0x72,,
0.913387840000000,0x6F,,
0.913474560000000,0x62,,
0.913561120000000,0x75,,
0.913647840000000,0x73,,
0.913734560000000,0x74,,
0.913821120000000,0x20,,
0.913907840000000,0x31,,
0.913994400000000,0x36,,
0.914081120000000,0x2D,,
0.914167680000000,0x62,,
0.914254400000000,0x69,,
0.914340960000000,0x74,,
0.914427680000000,0x20,,
0.914514400000000,0x43,,
0.914600960000000,0x52,,
0.914687680000000,0x43,,
0.914774240000000,0x20,,
0.914860800000000,0x74,,
0.914947360000000,0x6F,,
0.915033920000000,0x20,,
0.915120480000000,0x76,,
0.915207200000000,0x61,,
0.915293920000000,0x6C,,
0.915380640000000,0x69,,
0.915467200000000,0x64,,
0.915553920000000,0x61,,
0.915640480000000,0x74,,
0.915727040000000,0x65,,
0.915813600000000,0x20,,
0.915900160000000,0x74,,
0.915986880000000,0x68,,
0.916073440000000,0x65,,
0.916160000000000,0x20,,
0.916246560000000,0x64,,
0.916333280000000,0x61,,
0.916419840000000,0x74,,
0.916506560000000,0x61,,
0.916593280000000,0x20,,
0.916680000000000,0x62,,
0.916766560000000,0x6C,,
0.916853120000000,0x6F,,
0.916939840000000,0x63,,
0.917026400000000,0x6B,,
0.917113120000000,0x20,,
0.917199680000000,0x61,,
0.917286240000000,0x6E,,
0.917372800000000,0x64,,
0.917459360000000,0x20,,
0.917545920000000,0x69,,
0.917632640000000,0x73,,
0.917719200000000,0x20,,
0.917805920000000,0x75,,
0.917892640000000,0x73,,
0.917979360000000,0x65,,
0.918065920000000,0x64,,
0.918152480000000,0x20,,
0.918239040000000,0x68,,
0.918325600000000,0x65,,
0.918412160000000,0x72,,
0.918498880000000,0x65,,
0.918585440000000,0x2E,,
0.918672000000000,0x20,,
0.918758560000000,0x58,,
0.918845120000000,0x6D,,
0.918931680000000,0x6F,,
0.919018240000000,0x64,,
0.919104960000000,0x65,,
0.919191520000000,0x6D,,
0.919278240000000,0x20,,
0.919364960000000,0x63,,
0.919451520000000,0x61,,
0.919538240000000,0x6E,,
0.919624960000000,0x20,,
0.919711520000000,0x62,,
0.919798240000000,0x65,,
0.919884800000000,0x20,,
0.919971520000000,0x63,,
0.920058240000000,0x6F,,
0.920144800000000,0x6E,,
0.920231520000000,0x73,,
0.920318080000000,0x69,,
0.920404800000000,0x64,,
0.920491360000000,0x65,,
0.920578080000000,0x72,,
0.920664640000000,0x65,,
0.920751360000000,0x64,,
0.920838240000000,0x20,,
0.920924960000000,0x74,,
0.921011520000000,0x6F,,
0.921098080000000,0x20,,
0.921184800000000,0x62,,
0.921271360000000,0x65,,
0.921357920000000,0x20,,
0.921444480000000,0x72,,
0.921531200000000,0x65,,
0.921617760000000,0x63,,
0.921704320000000,0x65,,
0.921790880000000,0x69,,
0.921877440000000,0x76,,
0.921964000000000,0x65,,
0.922050560000000,0x72,,
0.922137120000000,0x20,,
0.922223840000000,0x64,,
0.922310400000000,0x72,,
0.922396960000000,0x69,,
0.922483680000000,0x76,,
0.922570240000000,0x65,,
0.922656640000000,0x6E,,
0.922743200000000,0x2E,,
0.922829760000000,0x20,,
0.922916160000000,0x54,,
0.923002560000000,0x68,,
0.923089120000000,0x61,,
0.923175680000000,0x74,,
0.923262240000000,0x20,,
0.923348800000000,0x69,,
0.923435520000000,0x73,,
0.923522080000000,0x2C,,
0.923608800000000,0x20,,
0.923695360000000,0x74,,
0.923782080000000,0x68,,
0.923868640000000,0x65,,
0.923955360000000,0x20,,
0.924041920000000,0x72,,
0.924128640000000,0x65,,
0.924215200000000,0x63,,
0.924301760000000,0x3B,,
0.929521120000000,0x01,,
0.929607680000000,0x07,,
0.929694400000000,0xF8,,
0.929780960000000,0x65,,
0.929867680000000,0x69,,
0.929954400000000,0x76,,
